
T06A4 000:376 SEGGER J-Link V4.80g Log File (0001ms, 0267ms total)
T06A4 000:376 DLL Compiled: Feb 13 2014 20:50:02 (0001ms, 0267ms total)
T06A4 000:376 Logging started @ 2014-08-18 16:07 (0001ms, 0267ms total)
T06A4 000:377 JLINK_SetWarnOutHandler(...) (0000ms, 0267ms total)
T06A4 000:377 JLINK_OpenEx(...)
Firmware: J-Link ARM V8 compiled Nov 25 2013 19:20:08
Hardware: V8.00
S/N: 20100213
Feature(s): RDI,FlashDL,FlashBP,JFlash,GDBFULL  returns O.K. (0265ms, 0532ms total)
T06A4 000:642 JLINK_SetErrorOutHandler(...) (0000ms, 0532ms total)
T06A4 000:642 JLINK_ExecCommand("ProjectFile = "C:\Users\jeqi\Documents\F103ZET6\JLinkSettings.ini"", ...)  returns 0x00 (0000ms, 0532ms total)
T06A4 000:642 JLINK_ExecCommand("Device = STM32F103ZE", ...)Device "STM32F103ZE" selected (512 KB flash, 64 KB RAM).  returns 0x00 (0001ms, 0533ms total)
T06A4 000:643 JLINK_ExecCommand("DisableConnectionTimeout", ...)  returns 0x01 (0000ms, 0533ms total)
T06A4 000:643 JLINK_GetHardwareVersion()  returns 0x13880 (0000ms, 0533ms total)
T06A4 000:643 JLINK_GetDLLVersion()  returns 48007 (0000ms, 0533ms total)
T06A4 000:643 JLINK_GetFirmwareString(...) (0000ms, 0533ms total)
T06A4 000:643 JLINK_GetDLLVersion()  returns 48007 (0000ms, 0533ms total)
T06A4 000:643 JLINK_GetCompileDateTime() (0000ms, 0533ms total)
T06A4 000:643 JLINK_GetFirmwareString(...) (0000ms, 0533ms total)
T06A4 000:643 JLINK_GetHardwareVersion()  returns 0x13880 (0000ms, 0533ms total)
T06A4 000:643 JLINK_TIF_Select(JLINKARM_TIF_SWD)  returns 0x00 (0002ms, 0535ms total)
T06A4 000:645 JLINK_SetSpeed(10000) (0000ms, 0535ms total)
T06A4 000:645 JLINK_GetId() >0x108 TIF>Found SWD-DP with ID 0x1BA01477 >0x0D TIF> >0x28 TIF> >0x0D TIF> >0x28 TIF> >0x0D TIF> >0x21 TIF> >0x0D TIF> >0x28 TIF> >0x0D TIF> >0x28 TIF> >0x0D TIF> >0x28 TIF> >0x0D TIF> >0x21 TIF> >0x0D TIF> >0x21 TIF> >0x0D TIF> >0x28 TIF> >0x0D TIF> >0x21 TIF> >0x0D TIF> >0x21 TIF> >0x108 TIF>Found SWD-DP with ID 0x1BA01477 >0x0D TIF> >0x21 TIF> >0x0D TIF> >0x28 TIF> >0x0D TIF> >0x28 TIF> >0x0D TIF> >0x21 TIF> >0x0D TIF> >0x28 TIF> >0x0D TIF> >0x21 TIF> >0x0D TIF> >0x21 TIF>
 >0x0D TIF> >0x21 TIF> >0x0D TIF> >0x21 TIF> >0x0D TIF> >0x28 TIF> >0x0D TIF> >0x28 TIF> >0x0D TIF> >0x21 TIF> >0x0D TIF> >0x28 TIF> >0x0D TIF> >0x28 TIF> >0x0D TIF> >0x28 TIF> >0x0D TIF> >0x21 TIF> >0x0D TIF> >0x21 TIF> >0x0D TIF> >0x28 TIF> >0x0D TIF> >0x21 TIF> >0x0D TIF> >0x21 TIF>Found Cortex-M3 r1p1, Little endian. -- CPU_WriteMem(4 bytes @ 0xE0002000) -- CPU_ReadMem(4 bytes @ 0xE000EDF0) -- CPU_ReadMem(4 bytes @ 0xE0002000)FPUnit: 6 code (BP) slots and 2 literal slots
 -- CPU_ReadMem(4 bytes @ 0xE000EDFC) -- CPU_ReadMem(4 bytes @ 0xE0001000) -- CPU_WriteMem(4 bytes @ 0xE0001000) -- CPU_ReadMem(4 bytes @ 0xE00FF010)TPIU fitted. -- CPU_ReadMem(4 bytes @ 0xE00FF014)ETM fitted. -- CPU_ReadMem(4 bytes @ 0xE00FF018) >0x0D TIF> >0x21 TIF>  returns 0x1BA01477 (0057ms, 0592ms total)
T06A4 000:702 JLINK_GetDeviceFamily()  returns 3 (0000ms, 0592ms total)
T06A4 000:702 JLINK_ReadMem (0xE00FFFF0, 0x0010 Bytes, ...) -- CPU is running -- CPU_ReadMem(16 bytes @ 0xE00FFFF0) -- Data:  0D 00 00 00 10 00 00 00 05 00 00 00 B1 00 00 00  returns 0x00 (0001ms, 0593ms total)
T06A4 000:703 JLINK_ReadMem (0xE00FFFD0, 0x0020 Bytes, ...) -- CPU is running -- CPU_ReadMem(32 bytes @ 0xE00FFFD0) -- Data:  00 00 00 00 00 00 00 00 00 00 00 00 00 00 00 00 ...  returns 0x00 (0002ms, 0595ms total)
T06A4 000:705 JLINK_ReadMem (0xE00FF000, 0x0018 Bytes, ...) -- CPU is running -- CPU_ReadMem(24 bytes @ 0xE00FF000) -- Data:  03 F0 F0 FF 03 20 F0 FF 03 30 F0 FF 03 10 F0 FF ...  returns 0x00 (0001ms, 0596ms total)
T06A4 000:706 JLINK_ReadMemU32(0xE000ED00, 0x0001 Items, ...) -- CPU is running -- CPU_ReadMem(4 bytes @ 0xE000ED00) -- Data:  31 C2 1F 41  returns 0x01 (0001ms, 0597ms total)
T06A4 000:707 JLINK_SetResetType(JLINKARM_RESET_TYPE_NORMAL)  returns JLINKARM_RESET_TYPE_NORMAL (0000ms, 0597ms total)
T06A4 000:707 JLINK_Reset() -- CPU is running -- CPU_WriteMem(4 bytes @ 0xE000EDF0) -- CPU is running -- CPU_WriteMem(4 bytes @ 0xE000EDFC) >0x35 TIF> -- CPU is running -- CPU_WriteMem(4 bytes @ 0xE000ED0C) -- CPU is running -- CPU_ReadMem(4 bytes @ 0xE000EDF0) -- CPU is running -- CPU_ReadMem(4 bytes @ 0xE000EDF0) -- CPU is running -- CPU_WriteMem(4 bytes @ 0xE000EDF0) -- CPU is running -- CPU_WriteMem(4 bytes @ 0xE000EDFC) -- CPU is running -- CPU_ReadMem(4 bytes @ 0xE000EDF0)
 -- CPU_WriteMem(4 bytes @ 0xE0002000) -- CPU_ReadMem(4 bytes @ 0xE000EDFC) -- CPU_ReadMem(4 bytes @ 0xE0001000) (0022ms, 0619ms total)
T06A4 000:729 JLINK_ReadReg(R15 (PC))  returns 0x08003A00 (0000ms, 0619ms total)
T06A4 000:729 JLINK_ReadReg(XPSR)  returns 0x01000000 (0000ms, 0619ms total)
T06A4 000:729 JLINK_Halt()  returns 0x00 (0000ms, 0619ms total)
T06A4 000:729 JLINK_IsHalted()  returns TRUE (0000ms, 0619ms total)
T06A4 000:729 JLINK_ReadMemU32(0xE000EDF0, 0x0001 Items, ...) -- CPU_ReadMem(4 bytes @ 0xE000EDF0) -- Data:  03 00 03 00  returns 0x01 (0001ms, 0620ms total)
T06A4 000:730 JLINK_WriteU32(0xE000EDF0, 0xA05F0003) -- CPU_WriteMem(4 bytes @ 0xE000EDF0)  returns 0x00 (0001ms, 0621ms total)
T06A4 000:731 JLINK_WriteU32(0xE000EDFC, 0x01000000) -- CPU_WriteMem(4 bytes @ 0xE000EDFC)  returns 0x00 (0001ms, 0622ms total)
T06A4 000:732 JLINK_GetHWStatus(...)  returns 0x00 (0001ms, 0623ms total)
T06A4 000:733 JLINK_GetNumBPUnits(Type = 0xFFFFFF00)  returns 0x06 (0000ms, 0623ms total)
T06A4 000:733 JLINK_GetNumBPUnits(Type = 0xF0)  returns 0x2000 (0000ms, 0623ms total)
T06A4 000:733 JLINK_GetNumWPUnits()  returns 0x04 (0000ms, 0623ms total)
T06A4 000:733 JLINK_GetSpeed()  returns 0xFA0 (0000ms, 0623ms total)
T06A4 000:733 JLINK_ReadMemU32(0xE000E004, 0x0001 Items, ...) -- CPU_ReadMem(4 bytes @ 0xE000E004) -- Data:  01 00 00 00  returns 0x01 (0001ms, 0624ms total)
T06A4 000:734 JLINK_ReadMemU32(0xE000E004, 0x0001 Items, ...) -- CPU_ReadMem(4 bytes @ 0xE000E004) -- Data:  01 00 00 00  returns 0x01 (0001ms, 0625ms total)
T06A4 000:735 JLINK_WriteMem(0xE0001000, 0x001C Bytes, ...) -- Data:  01 00 00 00 00 00 00 00 00 00 00 00 00 00 00 00 ... -- CPU_WriteMem(28 bytes @ 0xE0001000)  returns 0x1C (0001ms, 0626ms total)
T06A4 000:736 JLINK_ReadMem (0xE0001000, 0x001C Bytes, ...) -- CPU_ReadMem(28 bytes @ 0xE0001000) -- Data:  01 00 00 40 00 00 00 00 00 00 00 00 00 00 00 00 ...  returns 0x00 (0001ms, 0627ms total)
T06A4 000:737 JLINK_ReadReg(R15 (PC))  returns 0x08003A00 (0000ms, 0627ms total)
T06A4 000:737 JLINK_ReadReg(XPSR)  returns 0x01000000 (0000ms, 0627ms total)
T06A4 000:811 JLINK_WriteMem(0x08000000, 0x0400 Bytes, ...) -- Data:  A8 53 00 20 01 3A 00 08 2D 3D 00 08 2F 3D 00 08 ...  returns 0x400 (0000ms, 0627ms total)
T06A4 000:811 JLINK_WriteMem(0x08000400, 0x0400 Bytes, ...) -- Data:  20 68 A0 60 17 E0 31 46 22 6C E0 68 04 F0 FE F8 ...  returns 0x400 (0000ms, 0627ms total)
T06A4 000:811 JLINK_WriteMem(0x08000800, 0x0400 Bytes, ...) -- Data:  70 BD 01 46 8A 6B 0A B9 01 20 00 E0 00 20 70 47 ...  returns 0x400 (0000ms, 0627ms total)
T06A4 000:811 JLINK_WriteMem(0x08000C00, 0x0400 Bytes, ...) -- Data:  00 F0 45 FC 28 46 70 BD A0 00 00 20 04 01 00 20 ...  returns 0x400 (0000ms, 0627ms total)
T06A4 000:811 JLINK_ReadMem (0x08000000, 0x1000 Bytes, ...) -- Read from flash cache (4096 bytes @ 0x08000000) -- Data:  A8 53 00 20 01 3A 00 08 2D 3D 00 08 2F 3D 00 08 ...  returns 0x00 (0000ms, 0627ms total)
T06A4 000:811 JLINK_WriteMem(0x08001000, 0x0400 Bytes, ...) -- Data:  D3 FA 20 46 00 F0 D0 FA 10 BD 70 B5 23 E0 FF F7 ...  returns 0x400 (0000ms, 0627ms total)
T06A4 000:811 JLINK_WriteMem(0x08001400, 0x0400 Bytes, ...) -- Data:  20 00 00 20 FE F7 E0 FE 00 BF FE E7 00 1F 4F F0 ...  returns 0x400 (0000ms, 0627ms total)
T06A4 000:811 JLINK_WriteMem(0x08001800, 0x0400 Bytes, ...) -- Data:  CA 40 44 78 04 FA 03 F1 84 78 14 40 21 43 09 01 ...  returns 0x400 (0000ms, 0627ms total)
T06A4 000:811 JLINK_WriteMem(0x08001C00, 0x0400 Bytes, ...) -- Data:  07 EB 87 07 01 FA 07 F2 10 43 A0 63 F0 BD 10 B5 ...  returns 0x400 (0000ms, 0627ms total)
T06A4 000:811 JLINK_ReadMem (0x08001000, 0x1000 Bytes, ...) -- Read from flash cache (4096 bytes @ 0x08001000) -- Data:  D3 FA 20 46 00 F0 D0 FA 10 BD 70 B5 23 E0 FF F7 ...  returns 0x00 (0001ms, 0628ms total)
T06A4 000:812 JLINK_WriteMem(0x08002000, 0x0400 Bytes, ...) -- Data:  02 60 CB 68 43 60 0B 68 83 60 4B 68 C3 60 10 BD ...  returns 0x400 (0000ms, 0628ms total)
T06A4 000:812 JLINK_WriteMem(0x08002400, 0x0400 Bytes, ...) -- Data:  08 34 8D 10 44 F8 25 30 30 BD 0A 49 08 60 70 47 ...  returns 0x400 (0000ms, 0628ms total)
T06A4 000:812 JLINK_WriteMem(0x08002800, 0x0400 Bytes, ...) -- Data:  08 46 FF F7 AA FF 00 21 01 20 FF F7 A6 FF B8 E0 ...  returns 0x400 (0000ms, 0628ms total)
T06A4 000:812 JLINK_WriteMem(0x08002C00, 0x0400 Bytes, ...) -- Data:  00 54 01 40 00 18 00 40 00 1C 00 40 00 20 00 40 ...  returns 0x400 (0000ms, 0628ms total)
T06A4 000:812 JLINK_ReadMem (0x08002000, 0x1000 Bytes, ...) -- Read from flash cache (4096 bytes @ 0x08002000) -- Data:  02 60 CB 68 43 60 0B 68 83 60 4B 68 C3 60 10 BD ...  returns 0x00 (0000ms, 0628ms total)
T06A4 000:813 JLINK_WriteMem(0x08003000, 0x0400 Bytes, ...) -- Data:  70 47 00 21 01 80 41 80 01 21 81 80 00 21 C1 80 ...  returns 0x400 (0000ms, 0628ms total)
T06A4 000:813 JLINK_WriteMem(0x08003400, 0x0400 Bytes, ...) -- Data:  FF 53 19 40 4F F6 FF 73 03 EA 02 23 19 43 01 84 ...  returns 0x400 (0000ms, 0628ms total)
T06A4 000:813 JLINK_WriteMem(0x08003800, 0x0400 Bytes, ...) -- Data:  02 E0 83 8A 8B 43 83 82 70 47 02 8A 4F F6 F0 73 ...  returns 0x400 (0000ms, 0628ms total)
T06A4 000:813 JLINK_WriteMem(0x08003C00, 0x0400 Bytes, ...) -- Data:  00 23 1A 46 19 46 19 48 00 68 FC F7 18 FC 00 F0 ...  returns 0x400 (0000ms, 0628ms total)
T06A4 000:813 JLINK_ReadMem (0x08003000, 0x1000 Bytes, ...) -- Read from flash cache (4096 bytes @ 0x08003000) -- Data:  70 47 00 21 01 80 41 80 01 21 81 80 00 21 C1 80 ...  returns 0x00 (0000ms, 0628ms total)
T06A4 000:814 JLINK_WriteMem(0x08004000, 0x0400 Bytes, ...) -- Data:  16 00 05 A9 3B 48 FE F7 BD FC 60 20 AD F8 04 00 ...  returns 0x400 (0000ms, 0628ms total)
T06A4 000:814 JLINK_WriteMem(0x08004400, 0x0400 Bytes, ...) -- Data:  00 94 00 20 AD F8 04 00 AD F8 06 00 AD F8 08 00 ...  returns 0x400 (0000ms, 0628ms total)
T06A4 000:814 JLINK_WriteMem(0x08004800, 0x0400 Bytes, ...) -- Data:  BD E8 F0 4D 00 F0 C5 B8 96 23 00 22 11 46 00 F0 ...  returns 0x400 (0000ms, 0628ms total)
T06A4 000:814 JLINK_WriteMem(0x08004C00, 0x0400 Bytes, ...) -- Data:  81 54 47 EA 83 57 A4 FB 07 68 02 95 8D 0A 05 FB ...  returns 0x400 (0000ms, 0628ms total)
T06A4 000:814 JLINK_ReadMem (0x08004000, 0x1000 Bytes, ...) -- Read from flash cache (4096 bytes @ 0x08004000) -- Data:  16 00 05 A9 3B 48 FE F7 BD FC 60 20 AD F8 04 00 ...  returns 0x00 (0000ms, 0628ms total)
T06A4 000:814 JLINK_WriteMem(0x08005000, 0x0400 Bytes, ...) -- Data:  00 00 00 20 8D F8 01 00 E9 46 01 20 03 E0 57 F8 ...  returns 0x400 (0000ms, 0628ms total)
T06A4 000:814 JLINK_WriteMem(0x08005400, 0x0400 Bytes, ...) -- Data:  EC 71 0A D0 0D E0 29 E0 2A E0 09 F1 07 01 21 F0 ...  returns 0x400 (0000ms, 0628ms total)
T06A4 000:814 JLINK_WriteMem(0x08005800, 0x01F4 Bytes, ...) -- Data:  02 0D 12 A8 A0 EB 07 00 00 F1 07 08 14 98 00 78 ...  returns 0x1F4 (0001ms, 0629ms total)
T06A4 000:815 JLINK_ReadMem (0x08005000, 0x09F4 Bytes, ...) -- Read from flash cache (2548 bytes @ 0x08005000) -- Data:  00 00 00 20 8D F8 01 00 E9 46 01 20 03 E0 57 F8 ...  returns 0x00 (0000ms, 0629ms total)
T06A4 000:867 JLINK_SetResetType(JLINKARM_RESET_TYPE_NORMAL)  returns JLINKARM_RESET_TYPE_NORMAL (0000ms, 0629ms total)
T06A4 000:867 JLINK_Reset() -- -------------------------------------- -- Start of determining dirty areas -- End of determining dirty areas -- Start of preparing flash programming -- Calculating RAM usage -- RAM usage = 4012 Bytes -- Preserving registers -- Preparing memory -- Determining CPU clock frequency -- CPU clock frequency: 7993 kHz -- CPU frequency = 7993 kHz -- Preparing target -- Downloading RAMCode -- Using alternate TurboMode RAMCode -- Checking target RAM -- Preparing RAMCode
 -- End of preparing flash programmingCPU is running at low speed (7993 kHz). -- CPU is running at 7993 kHz. -- Start of comparing flash -- CRC check was estimated as fastest method -- Comparing range 0x8000000 - 0x8005FFF (12 Sectors, 24 KB), using multi-block CRC calculation -- All CRCs match -- End of comparing flash -- Start of erasing sectors -- End of erasing sectors -- Start of flash programming -- End of flash programming -- Start of verifying flash -- End of verifying flash -- Start of restoring
 -- Restore RAMCode -- Restore content of target memory -- Restore target -- Restore memory -- Restore content of registers -- End of restoring -- Flash download into internal flash skipped. Flash contents already match -- Flash download into internal flash skipped. Flash contents already match -- CPU_WriteMem(4 bytes @ 0xE000EDF0) -- CPU_WriteMem(4 bytes @ 0xE000EDFC) >0x35 TIF> -- CPU_WriteMem(4 bytes @ 0xE000ED0C) -- CPU_ReadMem(4 bytes @ 0xE000EDF0) -- CPU_ReadMem(4 bytes @ 0xE000EDF0)
 -- CPU_WriteMem(4 bytes @ 0xE000EDF0) -- CPU_WriteMem(4 bytes @ 0xE000EDFC) -- CPU is running -- CPU_ReadMem(4 bytes @ 0xE000EDF0) -- CPU_WriteMem(4 bytes @ 0xE0002000) -- CPU_ReadMem(4 bytes @ 0xE000EDFC) -- CPU_ReadMem(4 bytes @ 0xE0001000) (0181ms, 0810ms total)
T06A4 001:049 JLINK_ReadReg(R15 (PC))  returns 0x08003A00 (0000ms, 0810ms total)
T06A4 001:049 JLINK_ReadReg(XPSR)  returns 0x01000000 (0000ms, 0810ms total)
T06A4 001:049 JLINK_ReadMem (0x080039FE, 0x0002 Bytes, ...) -- Read from flash cache (2 bytes @ 0x080039FE) -- Data:  00 40  returns 0x00 (0000ms, 0810ms total)
T06A4 001:049 JLINK_ReadMem (0x08003A00, 0x0002 Bytes, ...) -- Read from flash cache (2 bytes @ 0x08003A00) -- Data:  06 48  returns 0x00 (0000ms, 0810ms total)
T06A4 001:049 JLINK_ReadMem (0x08003A00, 0x0002 Bytes, ...) -- Read from flash cache (2 bytes @ 0x08003A00) -- Data:  06 48  returns 0x00 (0000ms, 0810ms total)
T06A4 001:049 JLINK_ReadMem (0x08003A02, 0x0002 Bytes, ...) -- Read from flash cache (2 bytes @ 0x08003A02) -- Data:  80 47  returns 0x00 (0000ms, 0810ms total)
T06A4 001:049 JLINK_ReadMem (0x08003A00, 0x0002 Bytes, ...) -- Read from flash cache (2 bytes @ 0x08003A00) -- Data:  06 48  returns 0x00 (0000ms, 0810ms total)
T06A4 001:049 JLINK_ReadMem (0x08003A02, 0x0002 Bytes, ...) -- Read from flash cache (2 bytes @ 0x08003A02) -- Data:  80 47  returns 0x00 (0000ms, 0810ms total)
T06A4 001:049 JLINK_ReadMem (0x08003A02, 0x0002 Bytes, ...) -- Read from flash cache (2 bytes @ 0x08003A02) -- Data:  80 47  returns 0x00 (0000ms, 0810ms total)
T06A4 001:050 JLINK_ReadMem (0x08003A04, 0x0002 Bytes, ...) -- Read from flash cache (2 bytes @ 0x08003A04) -- Data:  06 48  returns 0x00 (0000ms, 0811ms total)
T06A4 001:050 JLINK_ReadMem (0x08003A02, 0x0002 Bytes, ...) -- Read from flash cache (2 bytes @ 0x08003A02) -- Data:  80 47  returns 0x00 (0000ms, 0811ms total)
T06A4 001:050 JLINK_ReadMem (0x08003A04, 0x0002 Bytes, ...) -- Read from flash cache (2 bytes @ 0x08003A04) -- Data:  06 48  returns 0x00 (0000ms, 0811ms total)
T06A4 001:050 JLINK_ReadMem (0x08003A04, 0x0002 Bytes, ...) -- Read from flash cache (2 bytes @ 0x08003A04) -- Data:  06 48  returns 0x00 (0000ms, 0811ms total)
T06A4 001:050 JLINK_ReadMem (0x08003A06, 0x0002 Bytes, ...) -- Read from flash cache (2 bytes @ 0x08003A06) -- Data:  00 47  returns 0x00 (0000ms, 0811ms total)
T06A4 001:050 JLINK_ReadMem (0x08003A04, 0x0002 Bytes, ...) -- Read from flash cache (2 bytes @ 0x08003A04) -- Data:  06 48  returns 0x00 (0000ms, 0811ms total)
T06A4 001:050 JLINK_ReadMem (0x08003A06, 0x0002 Bytes, ...) -- Read from flash cache (2 bytes @ 0x08003A06) -- Data:  00 47  returns 0x00 (0000ms, 0811ms total)
T06A4 001:134 JLINK_ReadMem (0x40020400, 0x0014 Bytes, ...) -- CPU_ReadMem(20 bytes @ 0x40020400) -- Data:  00 00 00 00 00 00 00 00 00 00 00 00 00 00 00 00 ...  returns 0x00 (0001ms, 0812ms total)
T06A4 001:135 JLINK_ReadMem (0x40020414, 0x0004 Bytes, ...) -- CPU_ReadMem(4 bytes @ 0x40020414) -- Data:  00 00 00 00  returns 0x00 (0001ms, 0813ms total)
T06A4 001:136 JLINK_ReadMem (0x4002041C, 0x000C Bytes, ...) -- CPU_ReadMem(12 bytes @ 0x4002041C) -- Data:  00 00 00 00 00 00 00 00 00 00 00 00  returns 0x00 (0001ms, 0814ms total)
T06A4 001:137 JLINK_ReadMem (0x40020428, 0x0004 Bytes, ...) -- CPU_ReadMem(4 bytes @ 0x40020428) -- Data:  00 00 00 00  returns 0x00 (0001ms, 0815ms total)
T06A4 001:138 JLINK_ReadMem (0x40020430, 0x000C Bytes, ...) -- CPU_ReadMem(12 bytes @ 0x40020430) -- Data:  00 00 00 00 00 00 00 00 00 00 00 00  returns 0x00 (0001ms, 0816ms total)
T06A4 001:139 JLINK_ReadMem (0x4002043C, 0x0004 Bytes, ...) -- CPU_ReadMem(4 bytes @ 0x4002043C) -- Data:  00 00 00 00  returns 0x00 (0000ms, 0816ms total)
T06A4 001:139 JLINK_ReadMem (0x40020444, 0x000C Bytes, ...) -- CPU_ReadMem(12 bytes @ 0x40020444) -- Data:  00 00 00 00 00 00 00 00 00 00 00 00  returns 0x00 (0001ms, 0817ms total)
T06A4 001:140 JLINK_ReadMem (0x40020450, 0x0004 Bytes, ...) -- CPU_ReadMem(4 bytes @ 0x40020450) -- Data:  00 00 00 00  returns 0x00 (0001ms, 0818ms total)
T06A4 001:141 JLINK_ReadMem (0x40020458, 0x000C Bytes, ...) -- CPU_ReadMem(12 bytes @ 0x40020458) -- Data:  00 00 00 00 00 00 00 00 00 00 00 00  returns 0x00 (0001ms, 0819ms total)
T06A4 001:142 JLINK_ReadMem (0x40020464, 0x0004 Bytes, ...) -- CPU_ReadMem(4 bytes @ 0x40020464) -- Data:  00 00 00 00  returns 0x00 (0000ms, 0819ms total)
T06A4 001:142 JLINK_ReadMem (0x4002046C, 0x000C Bytes, ...) -- CPU_ReadMem(12 bytes @ 0x4002046C) -- Data:  00 00 00 00 00 00 00 00 00 00 00 00  returns 0x00 (0001ms, 0820ms total)
T06A4 001:143 JLINK_ReadMem (0x40020478, 0x0004 Bytes, ...) -- CPU_ReadMem(4 bytes @ 0x40020478) -- Data:  00 00 00 00  returns 0x00 (0001ms, 0821ms total)
T06A4 001:144 JLINK_ReadMem (0x40020480, 0x000C Bytes, ...) -- CPU_ReadMem(12 bytes @ 0x40020480) -- Data:  00 00 00 00 00 00 00 00 00 00 00 00  returns 0x00 (0000ms, 0821ms total)
T06A4 001:144 JLINK_ReadMem (0x4002048C, 0x0004 Bytes, ...) -- CPU_ReadMem(4 bytes @ 0x4002048C) -- Data:  00 00 00 00  returns 0x00 (0001ms, 0822ms total)
T06A4 001:180 JLINK_ReadMem (0x40021000, 0x0024 Bytes, ...) -- CPU_ReadMem(36 bytes @ 0x40021000) -- Data:  83 4A 00 00 00 00 00 00 00 00 00 00 00 00 00 00 ...  returns 0x00 (0001ms, 0823ms total)
T06A4 001:181 JLINK_ReadMem (0x40021024, 0x0004 Bytes, ...) -- CPU_ReadMem(4 bytes @ 0x40021024) -- Data:  00 00 00 1C  returns 0x00 (0001ms, 0824ms total)
T06A4 001:182 JLINK_ReadMem (0x40021000, 0x0004 Bytes, ...) -- CPU_ReadMem(4 bytes @ 0x40021000) -- Data:  83 4A 00 00  returns 0x00 (0001ms, 0825ms total)
T06A4 001:183 JLINK_ReadMem (0x40021000, 0x0004 Bytes, ...) -- CPU_ReadMem(4 bytes @ 0x40021000) -- Data:  83 4A 00 00  returns 0x00 (0001ms, 0826ms total)
T06A4 001:184 JLINK_ReadMem (0x40021000, 0x0004 Bytes, ...) -- CPU_ReadMem(4 bytes @ 0x40021000) -- Data:  83 4A 00 00  returns 0x00 (0001ms, 0827ms total)
T06A4 001:185 JLINK_ReadMem (0x40021000, 0x0004 Bytes, ...) -- CPU_ReadMem(4 bytes @ 0x40021000) -- Data:  83 4A 00 00  returns 0x00 (0000ms, 0827ms total)
T06A4 001:186 JLINK_ReadMem (0x40021000, 0x0004 Bytes, ...) -- CPU_ReadMem(4 bytes @ 0x40021000) -- Data:  83 4A 00 00  returns 0x00 (0000ms, 0828ms total)
T06A4 001:186 JLINK_ReadMem (0x40021000, 0x0004 Bytes, ...) -- CPU_ReadMem(4 bytes @ 0x40021000) -- Data:  83 4A 00 00  returns 0x00 (0001ms, 0829ms total)
T06A4 001:187 JLINK_ReadMem (0x40021000, 0x0004 Bytes, ...) -- CPU_ReadMem(4 bytes @ 0x40021000) -- Data:  83 4A 00 00  returns 0x00 (0001ms, 0830ms total)
T06A4 001:188 JLINK_ReadMem (0x40021000, 0x0004 Bytes, ...) -- CPU_ReadMem(4 bytes @ 0x40021000) -- Data:  83 4A 00 00  returns 0x00 (0001ms, 0831ms total)
T06A4 001:189 JLINK_ReadMem (0x40021000, 0x0004 Bytes, ...) -- CPU_ReadMem(4 bytes @ 0x40021000) -- Data:  83 4A 00 00  returns 0x00 (0001ms, 0832ms total)
T06A4 001:190 JLINK_ReadMem (0x40021000, 0x0004 Bytes, ...) -- CPU_ReadMem(4 bytes @ 0x40021000) -- Data:  83 4A 00 00  returns 0x00 (0001ms, 0833ms total)
T06A4 001:191 JLINK_ReadMem (0x40021000, 0x0004 Bytes, ...) -- CPU_ReadMem(4 bytes @ 0x40021000) -- Data:  83 4A 00 00  returns 0x00 (0000ms, 0833ms total)
T06A4 001:192 JLINK_ReadMem (0x40021014, 0x0004 Bytes, ...) -- CPU_ReadMem(4 bytes @ 0x40021014) -- Data:  14 00 00 00  returns 0x00 (0000ms, 0833ms total)
T06A4 001:192 JLINK_ReadMem (0x40021014, 0x0004 Bytes, ...) -- CPU_ReadMem(4 bytes @ 0x40021014) -- Data:  14 00 00 00  returns 0x00 (0001ms, 0834ms total)
T06A4 001:193 JLINK_ReadMem (0x40021014, 0x0004 Bytes, ...) -- CPU_ReadMem(4 bytes @ 0x40021014) -- Data:  14 00 00 00  returns 0x00 (0001ms, 0835ms total)
T06A4 001:194 JLINK_ReadMem (0x40021014, 0x0004 Bytes, ...) -- CPU_ReadMem(4 bytes @ 0x40021014) -- Data:  14 00 00 00  returns 0x00 (0001ms, 0836ms total)
T06A4 001:195 JLINK_ReadMem (0x40021014, 0x0004 Bytes, ...) -- CPU_ReadMem(4 bytes @ 0x40021014) -- Data:  14 00 00 00  returns 0x00 (0001ms, 0837ms total)
T06A4 001:196 JLINK_ReadMem (0x40021014, 0x0004 Bytes, ...) -- CPU_ReadMem(4 bytes @ 0x40021014) -- Data:  14 00 00 00  returns 0x00 (0001ms, 0838ms total)
T06A4 001:197 JLINK_ReadMem (0x40021014, 0x0004 Bytes, ...) -- CPU_ReadMem(4 bytes @ 0x40021014) -- Data:  14 00 00 00  returns 0x00 (0000ms, 0838ms total)
T06A4 001:197 JLINK_ReadMem (0x40021014, 0x0004 Bytes, ...) -- CPU_ReadMem(4 bytes @ 0x40021014) -- Data:  14 00 00 00  returns 0x00 (0001ms, 0839ms total)
T06A4 001:198 JLINK_ReadMem (0x40021024, 0x0004 Bytes, ...) -- CPU_ReadMem(4 bytes @ 0x40021024) -- Data:  00 00 00 1C  returns 0x00 (0001ms, 0840ms total)
T06A4 001:199 JLINK_ReadMem (0x40021024, 0x0004 Bytes, ...) -- CPU_ReadMem(4 bytes @ 0x40021024) -- Data:  00 00 00 1C  returns 0x00 (0001ms, 0841ms total)
T06A4 001:200 JLINK_ReadMem (0x40021024, 0x0004 Bytes, ...) -- CPU_ReadMem(4 bytes @ 0x40021024) -- Data:  00 00 00 1C  returns 0x00 (0001ms, 0842ms total)
T06A4 001:201 JLINK_ReadMem (0x40021024, 0x0004 Bytes, ...) -- CPU_ReadMem(4 bytes @ 0x40021024) -- Data:  00 00 00 1C  returns 0x00 (0001ms, 0843ms total)
T06A4 001:202 JLINK_ReadMem (0x40021024, 0x0004 Bytes, ...) -- CPU_ReadMem(4 bytes @ 0x40021024) -- Data:  00 00 00 1C  returns 0x00 (0000ms, 0843ms total)
T06A4 001:203 JLINK_ReadMem (0x40021024, 0x0004 Bytes, ...) -- CPU_ReadMem(4 bytes @ 0x40021024) -- Data:  00 00 00 1C  returns 0x00 (0000ms, 0844ms total)
T06A4 001:203 JLINK_ReadMem (0x40021024, 0x0004 Bytes, ...) -- CPU_ReadMem(4 bytes @ 0x40021024) -- Data:  00 00 00 1C  returns 0x00 (0001ms, 0845ms total)
T06A4 001:204 JLINK_ReadMem (0x40021024, 0x0004 Bytes, ...) -- CPU_ReadMem(4 bytes @ 0x40021024) -- Data:  00 00 00 1C  returns 0x00 (0001ms, 0846ms total)
T06A4 001:205 JLINK_ReadMem (0x40021024, 0x0004 Bytes, ...) -- CPU_ReadMem(4 bytes @ 0x40021024) -- Data:  00 00 00 1C  returns 0x00 (0001ms, 0847ms total)
T06A4 001:206 JLINK_ReadMem (0x40021024, 0x0004 Bytes, ...) -- CPU_ReadMem(4 bytes @ 0x40021024) -- Data:  00 00 00 1C  returns 0x00 (0001ms, 0848ms total)
T06A4 002:183 JLINK_ReadMem (0x080039FE, 0x0002 Bytes, ...) -- Read from flash cache (2 bytes @ 0x080039FE) -- Data:  00 40  returns 0x00 (0001ms, 0849ms total)
T06A4 002:184 JLINK_ReadMem (0x08003A00, 0x0002 Bytes, ...) -- Read from flash cache (2 bytes @ 0x08003A00) -- Data:  06 48  returns 0x00 (0000ms, 0849ms total)
T06A4 002:184 JLINK_ReadMem (0x08003A00, 0x0002 Bytes, ...) -- Read from flash cache (2 bytes @ 0x08003A00) -- Data:  06 48  returns 0x00 (0000ms, 0849ms total)
T06A4 002:184 JLINK_ReadMem (0x08003A02, 0x0002 Bytes, ...) -- Read from flash cache (2 bytes @ 0x08003A02) -- Data:  80 47  returns 0x00 (0000ms, 0849ms total)
T06A4 002:184 JLINK_ReadMem (0x08003A02, 0x0002 Bytes, ...) -- Read from flash cache (2 bytes @ 0x08003A02) -- Data:  80 47  returns 0x00 (0000ms, 0849ms total)
T06A4 002:184 JLINK_ReadMem (0x08003A04, 0x0002 Bytes, ...) -- Read from flash cache (2 bytes @ 0x08003A04) -- Data:  06 48  returns 0x00 (0000ms, 0849ms total)
T06A4 002:184 JLINK_ReadMem (0x08003A04, 0x0002 Bytes, ...) -- Read from flash cache (2 bytes @ 0x08003A04) -- Data:  06 48  returns 0x00 (0000ms, 0849ms total)
T06A4 002:184 JLINK_ReadMem (0x08003A06, 0x0002 Bytes, ...) -- Read from flash cache (2 bytes @ 0x08003A06) -- Data:  00 47  returns 0x00 (0000ms, 0849ms total)
T06A4 002:186 JLINK_ReadMem (0x080039FE, 0x0002 Bytes, ...) -- Read from flash cache (2 bytes @ 0x080039FE) -- Data:  00 40  returns 0x00 (0000ms, 0849ms total)
T06A4 002:186 JLINK_ReadMem (0x08003A00, 0x0002 Bytes, ...) -- Read from flash cache (2 bytes @ 0x08003A00) -- Data:  06 48  returns 0x00 (0000ms, 0849ms total)
T06A4 002:186 JLINK_ReadMem (0x08003A00, 0x0002 Bytes, ...) -- Read from flash cache (2 bytes @ 0x08003A00) -- Data:  06 48  returns 0x00 (0000ms, 0849ms total)
T06A4 002:186 JLINK_ReadMem (0x08003A02, 0x0002 Bytes, ...) -- Read from flash cache (2 bytes @ 0x08003A02) -- Data:  80 47  returns 0x00 (0000ms, 0849ms total)
T06A4 002:186 JLINK_ReadMem (0x08003A02, 0x0002 Bytes, ...) -- Read from flash cache (2 bytes @ 0x08003A02) -- Data:  80 47  returns 0x00 (0000ms, 0849ms total)
T06A4 002:186 JLINK_ReadMem (0x08003A04, 0x0002 Bytes, ...) -- Read from flash cache (2 bytes @ 0x08003A04) -- Data:  06 48  returns 0x00 (0000ms, 0849ms total)
T06A4 002:186 JLINK_ReadMem (0x08003A04, 0x0002 Bytes, ...) -- Read from flash cache (2 bytes @ 0x08003A04) -- Data:  06 48  returns 0x00 (0000ms, 0849ms total)
T06A4 002:186 JLINK_ReadMem (0x08003A06, 0x0002 Bytes, ...) -- Read from flash cache (2 bytes @ 0x08003A06) -- Data:  00 47  returns 0x00 (0000ms, 0849ms total)
T06A4 002:192 JLINK_ReadMem (0x080039FE, 0x0002 Bytes, ...) -- Read from flash cache (2 bytes @ 0x080039FE) -- Data:  00 40  returns 0x00 (0000ms, 0849ms total)
T06A4 002:192 JLINK_ReadMem (0x08003A00, 0x0002 Bytes, ...) -- Read from flash cache (2 bytes @ 0x08003A00) -- Data:  06 48  returns 0x00 (0001ms, 0850ms total)
T06A4 002:193 JLINK_ReadMem (0x08003A00, 0x0002 Bytes, ...) -- Read from flash cache (2 bytes @ 0x08003A00) -- Data:  06 48  returns 0x00 (0000ms, 0850ms total)
T06A4 002:193 JLINK_ReadMem (0x08003A02, 0x0002 Bytes, ...) -- Read from flash cache (2 bytes @ 0x08003A02) -- Data:  80 47  returns 0x00 (0000ms, 0850ms total)
T06A4 002:193 JLINK_ReadMem (0x08003A02, 0x0002 Bytes, ...) -- Read from flash cache (2 bytes @ 0x08003A02) -- Data:  80 47  returns 0x00 (0000ms, 0850ms total)
T06A4 002:193 JLINK_ReadMem (0x08003A04, 0x0002 Bytes, ...) -- Read from flash cache (2 bytes @ 0x08003A04) -- Data:  06 48  returns 0x00 (0000ms, 0850ms total)
T06A4 002:211 JLINK_ReadMem (0x080039FE, 0x0002 Bytes, ...) -- Read from flash cache (2 bytes @ 0x080039FE) -- Data:  00 40  returns 0x00 (0000ms, 0850ms total)
T06A4 002:211 JLINK_ReadMem (0x08003A00, 0x0002 Bytes, ...) -- Read from flash cache (2 bytes @ 0x08003A00) -- Data:  06 48  returns 0x00 (0000ms, 0850ms total)
T06A4 002:211 JLINK_ReadMem (0x08003A00, 0x0002 Bytes, ...) -- Read from flash cache (2 bytes @ 0x08003A00) -- Data:  06 48  returns 0x00 (0000ms, 0850ms total)
T06A4 002:211 JLINK_ReadMem (0x08003A02, 0x0002 Bytes, ...) -- Read from flash cache (2 bytes @ 0x08003A02) -- Data:  80 47  returns 0x00 (0000ms, 0850ms total)
T06A4 002:211 JLINK_ReadMem (0x08003A02, 0x0002 Bytes, ...) -- Read from flash cache (2 bytes @ 0x08003A02) -- Data:  80 47  returns 0x00 (0000ms, 0850ms total)
T06A4 002:211 JLINK_ReadMem (0x08003A04, 0x0002 Bytes, ...) -- Read from flash cache (2 bytes @ 0x08003A04) -- Data:  06 48  returns 0x00 (0000ms, 0850ms total)
T06A4 002:211 JLINK_ReadMem (0x08003A04, 0x0002 Bytes, ...) -- Read from flash cache (2 bytes @ 0x08003A04) -- Data:  06 48  returns 0x00 (0000ms, 0850ms total)
T06A4 002:211 JLINK_ReadMem (0x08003A06, 0x0002 Bytes, ...) -- Read from flash cache (2 bytes @ 0x08003A06) -- Data:  00 47  returns 0x00 (0000ms, 0850ms total)
T1F24 002:372 JLINK_SetBPEx(Addr = 0x08003BC2, Type = 0xFFFFFFF2)  returns 0x00000001 (0000ms, 0850ms total)
T1F24 002:372 JLINK_SetBPEx(Addr = 0x08003BE8, Type = 0xFFFFFFF2)  returns 0x00000002 (0000ms, 0850ms total)
T1F24 002:372 JLINK_SetBPEx(Addr = 0x08003B7E, Type = 0xFFFFFFF2)  returns 0x00000003 (0000ms, 0850ms total)
T1F24 002:372 JLINK_Go() -- CPU_WriteMem(4 bytes @ 0xE0002000) -- CPU_WriteMem(4 bytes @ 0xE0002000) -- CPU_WriteMem(4 bytes @ 0xE0002000) -- CPU_WriteMem(4 bytes @ 0xE0002008) -- CPU_WriteMem(4 bytes @ 0xE000200C) -- CPU_WriteMem(4 bytes @ 0xE0002010) -- CPU_WriteMem(4 bytes @ 0xE0002014) -- CPU_WriteMem(4 bytes @ 0xE0002018) -- CPU_WriteMem(4 bytes @ 0xE000201C) -- CPU_WriteMem(4 bytes @ 0xE0001004) (0006ms, 0856ms total)
T1F24 002:478 JLINK_IsHalted()  returns TRUE (0003ms, 0859ms total)
T1F24 002:481 JLINK_Halt()  returns 0x00 (0000ms, 0856ms total)
T1F24 002:481 JLINK_IsHalted()  returns TRUE (0000ms, 0856ms total)
T1F24 002:481 JLINK_IsHalted()  returns TRUE (0000ms, 0856ms total)
T1F24 002:481 JLINK_IsHalted()  returns TRUE (0000ms, 0856ms total)
T1F24 002:481 JLINK_ReadReg(R15 (PC))  returns 0x08003BC2 (0000ms, 0856ms total)
T1F24 002:481 JLINK_ReadReg(XPSR)  returns 0x61000000 (0000ms, 0856ms total)
T1F24 002:481 JLINK_ClrBPEx(BPHandle = 0x00000001)  returns 0x00 (0000ms, 0856ms total)
T1F24 002:481 JLINK_ClrBPEx(BPHandle = 0x00000002)  returns 0x00 (0000ms, 0856ms total)
T1F24 002:481 JLINK_ClrBPEx(BPHandle = 0x00000003)  returns 0x00 (0000ms, 0856ms total)
T1F24 002:481 JLINK_ReadMemU32(0xE000ED30, 0x0001 Items, ...) -- CPU_ReadMem(4 bytes @ 0xE000ED30) -- Data:  03 00 00 00  returns 0x01 (0001ms, 0857ms total)
T1F24 002:482 JLINK_ReadMemU32(0xE0001028, 0x0001 Items, ...) -- CPU_ReadMem(4 bytes @ 0xE0001028) -- Data:  00 00 00 00  returns 0x01 (0001ms, 0858ms total)
T1F24 002:483 JLINK_ReadMemU32(0xE0001038, 0x0001 Items, ...) -- CPU_ReadMem(4 bytes @ 0xE0001038) -- Data:  00 02 00 00  returns 0x01 (0001ms, 0859ms total)
T1F24 002:484 JLINK_ReadMemU32(0xE0001048, 0x0001 Items, ...) -- CPU_ReadMem(4 bytes @ 0xE0001048) -- Data:  00 00 00 00  returns 0x01 (0001ms, 0860ms total)
T1F24 002:485 JLINK_ReadMemU32(0xE0001058, 0x0001 Items, ...) -- CPU_ReadMem(4 bytes @ 0xE0001058) -- Data:  00 00 00 00  returns 0x01 (0001ms, 0861ms total)
T1F24 002:486 JLINK_ReadReg(R0)  returns 0x08003BC3 (0001ms, 0862ms total)
T1F24 002:487 JLINK_ReadReg(R1)  returns 0x200053A8 (0000ms, 0862ms total)
T1F24 002:487 JLINK_ReadReg(R2)  returns 0x00000000 (0000ms, 0862ms total)
T1F24 002:487 JLINK_ReadReg(R3)  returns 0x08004DB9 (0000ms, 0862ms total)
T1F24 002:487 JLINK_ReadReg(R4)  returns 0x08005954 (0000ms, 0862ms total)
T1F24 002:487 JLINK_ReadReg(R5)  returns 0x08005954 (0000ms, 0862ms total)
T1F24 002:487 JLINK_ReadReg(R6)  returns 0x200006CC (0000ms, 0862ms total)
T1F24 002:487 JLINK_ReadReg(R7)  returns 0x00000000 (0000ms, 0862ms total)
T1F24 002:487 JLINK_ReadReg(R8)  returns 0x00000000 (0000ms, 0862ms total)
T1F24 002:487 JLINK_ReadReg(R9)  returns 0x20000160 (0000ms, 0862ms total)
T1F24 002:487 JLINK_ReadReg(R10)  returns 0x00000000 (0000ms, 0862ms total)
T1F24 002:487 JLINK_ReadReg(R11)  returns 0x00000000 (0000ms, 0862ms total)
T1F24 002:487 JLINK_ReadReg(R12)  returns 0x20000620 (0000ms, 0862ms total)
T1F24 002:487 JLINK_ReadReg(R13 (SP))  returns 0x200053A8 (0000ms, 0862ms total)
T1F24 002:487 JLINK_ReadReg(R14)  returns 0x08004CF9 (0000ms, 0862ms total)
T1F24 002:487 JLINK_ReadReg(R15 (PC))  returns 0x08003BC2 (0000ms, 0862ms total)
T1F24 002:487 JLINK_ReadReg(XPSR)  returns 0x61000000 (0000ms, 0862ms total)
T1F24 002:487 JLINK_ReadReg(MSP)  returns 0x200053A8 (0000ms, 0862ms total)
T1F24 002:487 JLINK_ReadReg(PSP)  returns 0x20001000 (0000ms, 0862ms total)
T1F24 002:487 JLINK_ReadReg(CFBP)  returns 0x00000000 (0000ms, 0862ms total)
T06A4 002:490 JLINK_ReadMem (0x40020400, 0x0014 Bytes, ...) -- CPU_ReadMem(20 bytes @ 0x40020400) -- Data:  00 00 00 00 00 00 00 00 00 00 00 00 00 00 00 00 ...  returns 0x00 (0001ms, 0863ms total)
T06A4 002:491 JLINK_ReadMem (0x40020414, 0x0004 Bytes, ...) -- CPU_ReadMem(4 bytes @ 0x40020414) -- Data:  00 00 00 00  returns 0x00 (0001ms, 0864ms total)
T06A4 002:492 JLINK_ReadMem (0x4002041C, 0x000C Bytes, ...) -- CPU_ReadMem(12 bytes @ 0x4002041C) -- Data:  00 00 00 00 00 00 00 00 00 00 00 00  returns 0x00 (0001ms, 0865ms total)
T06A4 002:493 JLINK_ReadMem (0x40020428, 0x0004 Bytes, ...) -- CPU_ReadMem(4 bytes @ 0x40020428) -- Data:  00 00 00 00  returns 0x00 (0001ms, 0866ms total)
T06A4 002:494 JLINK_ReadMem (0x40020430, 0x000C Bytes, ...) -- CPU_ReadMem(12 bytes @ 0x40020430) -- Data:  00 00 00 00 00 00 00 00 00 00 00 00  returns 0x00 (0001ms, 0867ms total)
T06A4 002:495 JLINK_ReadMem (0x4002043C, 0x0004 Bytes, ...) -- CPU_ReadMem(4 bytes @ 0x4002043C) -- Data:  00 00 00 00  returns 0x00 (0001ms, 0868ms total)
T06A4 002:496 JLINK_ReadMem (0x40020444, 0x000C Bytes, ...) -- CPU_ReadMem(12 bytes @ 0x40020444) -- Data:  00 00 00 00 00 00 00 00 00 00 00 00  returns 0x00 (0001ms, 0869ms total)
T06A4 002:497 JLINK_ReadMem (0x40020450, 0x0004 Bytes, ...) -- CPU_ReadMem(4 bytes @ 0x40020450) -- Data:  00 00 00 00  returns 0x00 (0001ms, 0870ms total)
T06A4 002:498 JLINK_ReadMem (0x40020458, 0x000C Bytes, ...) -- CPU_ReadMem(12 bytes @ 0x40020458) -- Data:  00 00 00 00 00 00 00 00 00 00 00 00  returns 0x00 (0001ms, 0871ms total)
T06A4 002:499 JLINK_ReadMem (0x40020464, 0x0004 Bytes, ...) -- CPU_ReadMem(4 bytes @ 0x40020464) -- Data:  00 00 00 00  returns 0x00 (0000ms, 0871ms total)
T06A4 002:499 JLINK_ReadMem (0x4002046C, 0x000C Bytes, ...) -- CPU_ReadMem(12 bytes @ 0x4002046C) -- Data:  00 00 00 00 00 00 00 00 00 00 00 00  returns 0x00 (0001ms, 0872ms total)
T06A4 002:500 JLINK_ReadMem (0x40020478, 0x0004 Bytes, ...) -- CPU_ReadMem(4 bytes @ 0x40020478) -- Data:  00 00 00 00  returns 0x00 (0001ms, 0873ms total)
T06A4 002:501 JLINK_ReadMem (0x40020480, 0x000C Bytes, ...) -- CPU_ReadMem(12 bytes @ 0x40020480) -- Data:  00 00 00 00 00 00 00 00 00 00 00 00  returns 0x00 (0001ms, 0874ms total)
T06A4 002:502 JLINK_ReadMem (0x4002048C, 0x0004 Bytes, ...) -- CPU_ReadMem(4 bytes @ 0x4002048C) -- Data:  00 00 00 00  returns 0x00 (0001ms, 0875ms total)
T06A4 002:504 JLINK_ReadMem (0x40021000, 0x0024 Bytes, ...) -- CPU_ReadMem(36 bytes @ 0x40021000) -- Data:  83 4A 03 03 0A 04 1D 00 00 00 00 00 00 00 00 00 ...  returns 0x00 (0001ms, 0876ms total)
T06A4 002:505 JLINK_ReadMem (0x40021024, 0x0004 Bytes, ...) -- CPU_ReadMem(4 bytes @ 0x40021024) -- Data:  00 00 00 1C  returns 0x00 (0001ms, 0877ms total)
T06A4 002:506 JLINK_ReadMem (0x40021000, 0x0004 Bytes, ...) -- CPU_ReadMem(4 bytes @ 0x40021000) -- Data:  83 4A 03 03  returns 0x00 (0001ms, 0878ms total)
T06A4 002:507 JLINK_ReadMem (0x40021000, 0x0004 Bytes, ...) -- CPU_ReadMem(4 bytes @ 0x40021000) -- Data:  83 4A 03 03  returns 0x00 (0001ms, 0879ms total)
T06A4 002:508 JLINK_ReadMem (0x40021000, 0x0004 Bytes, ...) -- CPU_ReadMem(4 bytes @ 0x40021000) -- Data:  83 4A 03 03  returns 0x00 (0001ms, 0880ms total)
T06A4 002:509 JLINK_ReadMem (0x40021000, 0x0004 Bytes, ...) -- CPU_ReadMem(4 bytes @ 0x40021000) -- Data:  83 4A 03 03  returns 0x00 (0001ms, 0881ms total)
T06A4 002:510 JLINK_ReadMem (0x40021000, 0x0004 Bytes, ...) -- CPU_ReadMem(4 bytes @ 0x40021000) -- Data:  83 4A 03 03  returns 0x00 (0000ms, 0881ms total)
T06A4 002:511 JLINK_ReadMem (0x40021000, 0x0004 Bytes, ...) -- CPU_ReadMem(4 bytes @ 0x40021000) -- Data:  83 4A 03 03  returns 0x00 (0000ms, 0881ms total)
T06A4 002:511 JLINK_ReadMem (0x40021000, 0x0004 Bytes, ...) -- CPU_ReadMem(4 bytes @ 0x40021000) -- Data:  83 4A 03 03  returns 0x00 (0001ms, 0882ms total)
T06A4 002:512 JLINK_ReadMem (0x40021000, 0x0004 Bytes, ...) -- CPU_ReadMem(4 bytes @ 0x40021000) -- Data:  83 4A 03 03  returns 0x00 (0001ms, 0883ms total)
T06A4 002:513 JLINK_ReadMem (0x40021000, 0x0004 Bytes, ...) -- CPU_ReadMem(4 bytes @ 0x40021000) -- Data:  83 4A 03 03  returns 0x00 (0001ms, 0884ms total)
T06A4 002:514 JLINK_ReadMem (0x40021000, 0x0004 Bytes, ...) -- CPU_ReadMem(4 bytes @ 0x40021000) -- Data:  83 4A 03 03  returns 0x00 (0001ms, 0885ms total)
T06A4 002:515 JLINK_ReadMem (0x40021000, 0x0004 Bytes, ...) -- CPU_ReadMem(4 bytes @ 0x40021000) -- Data:  83 4A 03 03  returns 0x00 (0001ms, 0886ms total)
T06A4 002:516 JLINK_ReadMem (0x40021004, 0x0004 Bytes, ...) -- CPU_ReadMem(4 bytes @ 0x40021004) -- Data:  0A 04 1D 00  returns 0x00 (0001ms, 0887ms total)
T06A4 002:517 JLINK_ReadMem (0x40021004, 0x0004 Bytes, ...) -- CPU_ReadMem(4 bytes @ 0x40021004) -- Data:  0A 04 1D 00  returns 0x00 (0001ms, 0888ms total)
T06A4 002:518 JLINK_ReadMem (0x40021004, 0x0004 Bytes, ...) -- CPU_ReadMem(4 bytes @ 0x40021004) -- Data:  0A 04 1D 00  returns 0x00 (0001ms, 0889ms total)
T06A4 002:519 JLINK_ReadMem (0x40021004, 0x0004 Bytes, ...) -- CPU_ReadMem(4 bytes @ 0x40021004) -- Data:  0A 04 1D 00  returns 0x00 (0001ms, 0890ms total)
T06A4 002:520 JLINK_ReadMem (0x40021004, 0x0004 Bytes, ...) -- CPU_ReadMem(4 bytes @ 0x40021004) -- Data:  0A 04 1D 00  returns 0x00 (0001ms, 0891ms total)
T06A4 002:521 JLINK_ReadMem (0x40021004, 0x0004 Bytes, ...) -- CPU_ReadMem(4 bytes @ 0x40021004) -- Data:  0A 04 1D 00  returns 0x00 (0001ms, 0892ms total)
T06A4 002:522 JLINK_ReadMem (0x40021004, 0x0004 Bytes, ...) -- CPU_ReadMem(4 bytes @ 0x40021004) -- Data:  0A 04 1D 00  returns 0x00 (0001ms, 0893ms total)
T06A4 002:523 JLINK_ReadMem (0x40021004, 0x0004 Bytes, ...) -- CPU_ReadMem(4 bytes @ 0x40021004) -- Data:  0A 04 1D 00  returns 0x00 (0001ms, 0894ms total)
T06A4 002:524 JLINK_ReadMem (0x40021004, 0x0004 Bytes, ...) -- CPU_ReadMem(4 bytes @ 0x40021004) -- Data:  0A 04 1D 00  returns 0x00 (0001ms, 0895ms total)
T06A4 002:525 JLINK_ReadMem (0x40021004, 0x0004 Bytes, ...) -- CPU_ReadMem(4 bytes @ 0x40021004) -- Data:  0A 04 1D 00  returns 0x00 (0001ms, 0896ms total)
T06A4 002:526 JLINK_ReadMem (0x40021004, 0x0004 Bytes, ...) -- CPU_ReadMem(4 bytes @ 0x40021004) -- Data:  0A 04 1D 00  returns 0x00 (0001ms, 0897ms total)
T06A4 002:527 JLINK_ReadMem (0x40021004, 0x0004 Bytes, ...) -- CPU_ReadMem(4 bytes @ 0x40021004) -- Data:  0A 04 1D 00  returns 0x00 (0001ms, 0898ms total)
T06A4 002:529 JLINK_ReadMem (0x08003BB2, 0x0002 Bytes, ...) -- Read from flash cache (2 bytes @ 0x08003BB2) -- Data:  00 23  returns 0x00 (0000ms, 0898ms total)
T06A4 002:529 JLINK_ReadMem (0x08003BB4, 0x0002 Bytes, ...) -- Read from flash cache (2 bytes @ 0x08003BB4) -- Data:  1A 46  returns 0x00 (0000ms, 0898ms total)
T06A4 002:529 JLINK_ReadMem (0x08003BB4, 0x0002 Bytes, ...) -- Read from flash cache (2 bytes @ 0x08003BB4) -- Data:  1A 46  returns 0x00 (0000ms, 0898ms total)
T06A4 002:529 JLINK_ReadMem (0x08003BB6, 0x0002 Bytes, ...) -- Read from flash cache (2 bytes @ 0x08003BB6) -- Data:  19 46  returns 0x00 (0000ms, 0898ms total)
T06A4 002:529 JLINK_ReadMem (0x08003BB6, 0x0002 Bytes, ...) -- Read from flash cache (2 bytes @ 0x08003BB6) -- Data:  19 46  returns 0x00 (0000ms, 0898ms total)
T06A4 002:529 JLINK_ReadMem (0x08003BB8, 0x0002 Bytes, ...) -- Read from flash cache (2 bytes @ 0x08003BB8) -- Data:  3C 48  returns 0x00 (0000ms, 0898ms total)
T06A4 002:529 JLINK_ReadMem (0x08003BB8, 0x0002 Bytes, ...) -- Read from flash cache (2 bytes @ 0x08003BB8) -- Data:  3C 48  returns 0x00 (0000ms, 0898ms total)
T06A4 002:529 JLINK_ReadMem (0x08003BBA, 0x0002 Bytes, ...) -- Read from flash cache (2 bytes @ 0x08003BBA) -- Data:  00 68  returns 0x00 (0001ms, 0899ms total)
T06A4 002:530 JLINK_ReadMem (0x08003BBA, 0x0002 Bytes, ...) -- Read from flash cache (2 bytes @ 0x08003BBA) -- Data:  00 68  returns 0x00 (0000ms, 0899ms total)
T06A4 002:530 JLINK_ReadMem (0x08003BBC, 0x0002 Bytes, ...) -- Read from flash cache (2 bytes @ 0x08003BBC) -- Data:  FC F7  returns 0x00 (0000ms, 0899ms total)
T06A4 002:530 JLINK_ReadMem (0x08003BBC, 0x0002 Bytes, ...) -- Read from flash cache (2 bytes @ 0x08003BBC) -- Data:  FC F7  returns 0x00 (0000ms, 0899ms total)
T06A4 002:530 JLINK_ReadMem (0x08003BBE, 0x0002 Bytes, ...) -- Read from flash cache (2 bytes @ 0x08003BBE) -- Data:  3F FC  returns 0x00 (0000ms, 0899ms total)
T06A4 002:530 JLINK_ReadMem (0x08003BC0, 0x0002 Bytes, ...) -- Read from flash cache (2 bytes @ 0x08003BC0) -- Data:  AA E7  returns 0x00 (0000ms, 0899ms total)
T06A4 002:530 JLINK_ReadMem (0x08003BC2, 0x0002 Bytes, ...) -- Read from flash cache (2 bytes @ 0x08003BC2) -- Data:  1F B5  returns 0x00 (0000ms, 0899ms total)
T06A4 002:530 JLINK_ReadMem (0x08003BC0, 0x0002 Bytes, ...) -- Read from flash cache (2 bytes @ 0x08003BC0) -- Data:  AA E7  returns 0x00 (0000ms, 0899ms total)
T06A4 002:530 JLINK_ReadMem (0x08003BC2, 0x0002 Bytes, ...) -- Read from flash cache (2 bytes @ 0x08003BC2) -- Data:  1F B5  returns 0x00 (0000ms, 0899ms total)
T06A4 002:530 JLINK_ReadMem (0x08003BC2, 0x0002 Bytes, ...) -- Read from flash cache (2 bytes @ 0x08003BC2) -- Data:  1F B5  returns 0x00 (0000ms, 0899ms total)
T06A4 002:530 JLINK_ReadMem (0x08003BC4, 0x0002 Bytes, ...) -- Read from flash cache (2 bytes @ 0x08003BC4) -- Data:  00 F0  returns 0x00 (0000ms, 0899ms total)
T06A4 002:530 JLINK_ReadMem (0x08003BC2, 0x0002 Bytes, ...) -- Read from flash cache (2 bytes @ 0x08003BC2) -- Data:  1F B5  returns 0x00 (0000ms, 0899ms total)
T06A4 002:530 JLINK_ReadMem (0x08003BC4, 0x0002 Bytes, ...) -- Read from flash cache (2 bytes @ 0x08003BC4) -- Data:  00 F0  returns 0x00 (0000ms, 0899ms total)
T06A4 002:530 JLINK_ReadMem (0x08003BC4, 0x0002 Bytes, ...) -- Read from flash cache (2 bytes @ 0x08003BC4) -- Data:  00 F0  returns 0x00 (0000ms, 0899ms total)
T06A4 002:530 JLINK_ReadMem (0x08003BC6, 0x0002 Bytes, ...) -- Read from flash cache (2 bytes @ 0x08003BC6) -- Data:  96 F9  returns 0x00 (0000ms, 0899ms total)
T06A4 002:530 JLINK_ReadMem (0x08003BC4, 0x0002 Bytes, ...) -- Read from flash cache (2 bytes @ 0x08003BC4) -- Data:  00 F0  returns 0x00 (0000ms, 0899ms total)
T06A4 002:530 JLINK_ReadMem (0x08003BC6, 0x0002 Bytes, ...) -- Read from flash cache (2 bytes @ 0x08003BC6) -- Data:  96 F9  returns 0x00 (0000ms, 0899ms total)
T06A4 002:549 JLINK_ReadMem (0x08003B7E, 0x0002 Bytes, ...) -- Read from flash cache (2 bytes @ 0x08003B7E) -- Data:  4C A0  returns 0x00 (0001ms, 0900ms total)
T06A4 002:550 JLINK_ReadMem (0x08003B80, 0x0002 Bytes, ...) -- Read from flash cache (2 bytes @ 0x08003B80) -- Data:  00 F0  returns 0x00 (0000ms, 0900ms total)
T06A4 002:550 JLINK_ReadMem (0x08003B7E, 0x0002 Bytes, ...) -- Read from flash cache (2 bytes @ 0x08003B7E) -- Data:  4C A0  returns 0x00 (0000ms, 0900ms total)
T06A4 002:550 JLINK_ReadMem (0x08003B80, 0x0002 Bytes, ...) -- Read from flash cache (2 bytes @ 0x08003B80) -- Data:  00 F0  returns 0x00 (0000ms, 0900ms total)
T06A4 002:550 JLINK_ReadMem (0x08003B80, 0x0002 Bytes, ...) -- Read from flash cache (2 bytes @ 0x08003B80) -- Data:  00 F0  returns 0x00 (0000ms, 0900ms total)
T06A4 002:550 JLINK_ReadMem (0x08003B82, 0x0002 Bytes, ...) -- Read from flash cache (2 bytes @ 0x08003B82) -- Data:  17 FD  returns 0x00 (0000ms, 0900ms total)
T06A4 002:550 JLINK_ReadMem (0x08003B80, 0x0002 Bytes, ...) -- Read from flash cache (2 bytes @ 0x08003B80) -- Data:  00 F0  returns 0x00 (0000ms, 0900ms total)
T06A4 002:550 JLINK_ReadMem (0x08003B82, 0x0002 Bytes, ...) -- Read from flash cache (2 bytes @ 0x08003B82) -- Data:  17 FD  returns 0x00 (0000ms, 0900ms total)
T06A4 002:550 JLINK_ReadMem (0x08003B84, 0x0002 Bytes, ...) -- Read from flash cache (2 bytes @ 0x08003B84) -- Data:  4E 48  returns 0x00 (0000ms, 0900ms total)
T06A4 002:550 JLINK_ReadMem (0x08003B86, 0x0002 Bytes, ...) -- Read from flash cache (2 bytes @ 0x08003B86) -- Data:  02 88  returns 0x00 (0000ms, 0900ms total)
T06A4 002:550 JLINK_ReadMem (0x08003B84, 0x0002 Bytes, ...) -- Read from flash cache (2 bytes @ 0x08003B84) -- Data:  4E 48  returns 0x00 (0000ms, 0900ms total)
T06A4 002:550 JLINK_ReadMem (0x08003B86, 0x0002 Bytes, ...) -- Read from flash cache (2 bytes @ 0x08003B86) -- Data:  02 88  returns 0x00 (0000ms, 0900ms total)
T06A4 002:550 JLINK_ReadMem (0x08003B86, 0x0002 Bytes, ...) -- Read from flash cache (2 bytes @ 0x08003B86) -- Data:  02 88  returns 0x00 (0000ms, 0900ms total)
T06A4 002:550 JLINK_ReadMem (0x08003B88, 0x0002 Bytes, ...) -- Read from flash cache (2 bytes @ 0x08003B88) -- Data:  4E 48  returns 0x00 (0000ms, 0900ms total)
T06A4 002:550 JLINK_ReadMem (0x08003B86, 0x0002 Bytes, ...) -- Read from flash cache (2 bytes @ 0x08003B86) -- Data:  02 88  returns 0x00 (0000ms, 0900ms total)
T06A4 002:550 JLINK_ReadMem (0x08003B88, 0x0002 Bytes, ...) -- Read from flash cache (2 bytes @ 0x08003B88) -- Data:  4E 48  returns 0x00 (0000ms, 0900ms total)
T1F24 003:024 JLINK_SetBPEx(Addr = 0x08003BE8, Type = 0xFFFFFFF2)  returns 0x00000004 (0000ms, 0900ms total)
T1F24 003:024 JLINK_SetBPEx(Addr = 0x08003B7E, Type = 0xFFFFFFF2)  returns 0x00000005 (0000ms, 0900ms total)
T1F24 003:024 JLINK_Go() -- CPU_WriteMem(4 bytes @ 0xE0002000) -- CPU_WriteMem(4 bytes @ 0xE0002000) -- CPU_WriteMem(4 bytes @ 0xE0002008) -- CPU_WriteMem(4 bytes @ 0xE000200C) -- CPU_WriteMem(4 bytes @ 0xE0002010) (0004ms, 0904ms total)
T1F24 003:128 JLINK_IsHalted()  returns TRUE (0003ms, 0907ms total)
T1F24 003:131 JLINK_Halt()  returns 0x00 (0000ms, 0904ms total)
T1F24 003:131 JLINK_IsHalted()  returns TRUE (0000ms, 0904ms total)
T1F24 003:131 JLINK_IsHalted()  returns TRUE (0000ms, 0904ms total)
T1F24 003:131 JLINK_IsHalted()  returns TRUE (0000ms, 0904ms total)
T1F24 003:131 JLINK_ReadReg(R15 (PC))  returns 0x08003BE8 (0000ms, 0904ms total)
T1F24 003:131 JLINK_ReadReg(XPSR)  returns 0x41000000 (0000ms, 0904ms total)
T1F24 003:131 JLINK_ClrBPEx(BPHandle = 0x00000004)  returns 0x00 (0000ms, 0904ms total)
T1F24 003:131 JLINK_ClrBPEx(BPHandle = 0x00000005)  returns 0x00 (0001ms, 0905ms total)
T1F24 003:132 JLINK_ReadMemU32(0xE000ED30, 0x0001 Items, ...) -- CPU_ReadMem(4 bytes @ 0xE000ED30) -- Data:  03 00 00 00  returns 0x01 (0001ms, 0906ms total)
T1F24 003:133 JLINK_ReadMemU32(0xE0001028, 0x0001 Items, ...) -- CPU_ReadMem(4 bytes @ 0xE0001028) -- Data:  00 00 00 00  returns 0x01 (0001ms, 0907ms total)
T1F24 003:134 JLINK_ReadMemU32(0xE0001038, 0x0001 Items, ...) -- CPU_ReadMem(4 bytes @ 0xE0001038) -- Data:  00 02 00 00  returns 0x01 (0001ms, 0908ms total)
T1F24 003:135 JLINK_ReadMemU32(0xE0001048, 0x0001 Items, ...) -- CPU_ReadMem(4 bytes @ 0xE0001048) -- Data:  00 00 00 00  returns 0x01 (0001ms, 0909ms total)
T1F24 003:136 JLINK_ReadMemU32(0xE0001058, 0x0001 Items, ...) -- CPU_ReadMem(4 bytes @ 0xE0001058) -- Data:  00 00 00 00  returns 0x01 (0001ms, 0910ms total)
T1F24 003:137 JLINK_ReadReg(R0)  returns 0x00000000 (0000ms, 0910ms total)
T1F24 003:137 JLINK_ReadReg(R1)  returns 0x00000000 (0000ms, 0910ms total)
T1F24 003:137 JLINK_ReadReg(R2)  returns 0x40007408 (0000ms, 0910ms total)
T1F24 003:137 JLINK_ReadReg(R3)  returns 0x40007408 (0000ms, 0910ms total)
T1F24 003:137 JLINK_ReadReg(R4)  returns 0x08005954 (0000ms, 0910ms total)
T1F24 003:137 JLINK_ReadReg(R5)  returns 0x08005954 (0000ms, 0910ms total)
T1F24 003:137 JLINK_ReadReg(R6)  returns 0x200006CC (0000ms, 0910ms total)
T1F24 003:137 JLINK_ReadReg(R7)  returns 0x00000000 (0000ms, 0910ms total)
T1F24 003:137 JLINK_ReadReg(R8)  returns 0x00000000 (0000ms, 0910ms total)
T1F24 003:137 JLINK_ReadReg(R9)  returns 0x20000160 (0000ms, 0910ms total)
T1F24 003:137 JLINK_ReadReg(R10)  returns 0x00000000 (0000ms, 0910ms total)
T1F24 003:137 JLINK_ReadReg(R11)  returns 0x00000000 (0000ms, 0910ms total)
T1F24 003:137 JLINK_ReadReg(R12)  returns 0x00000010 (0000ms, 0910ms total)
T1F24 003:137 JLINK_ReadReg(R13 (SP))  returns 0x20005390 (0000ms, 0910ms total)
T1F24 003:137 JLINK_ReadReg(R14)  returns 0x08004307 (0000ms, 0910ms total)
T1F24 003:137 JLINK_ReadReg(R15 (PC))  returns 0x08003BE8 (0000ms, 0910ms total)
T1F24 003:137 JLINK_ReadReg(XPSR)  returns 0x41000000 (0000ms, 0910ms total)
T1F24 003:137 JLINK_ReadReg(MSP)  returns 0x20005390 (0001ms, 0911ms total)
T1F24 003:138 JLINK_ReadReg(PSP)  returns 0x20001000 (0000ms, 0911ms total)
T1F24 003:138 JLINK_ReadReg(CFBP)  returns 0x00000000 (0000ms, 0911ms total)
T06A4 003:138 JLINK_ReadMem (0x200053A4, 0x0004 Bytes, ...) -- CPU_ReadMem(64 bytes @ 0x20005380) -- Updating C cache (64 bytes @ 0x20005380) -- Read from C cache (4 bytes @ 0x200053A4) -- Data:  F9 4C 00 08  returns 0x00 (0001ms, 0912ms total)
T06A4 003:139 JLINK_ReadMem (0x40020400, 0x0014 Bytes, ...) -- CPU_ReadMem(20 bytes @ 0x40020400) -- Data:  00 00 00 00 00 00 00 00 00 00 00 00 00 00 00 00 ...  returns 0x00 (0001ms, 0913ms total)
T06A4 003:140 JLINK_ReadMem (0x40020414, 0x0004 Bytes, ...) -- CPU_ReadMem(4 bytes @ 0x40020414) -- Data:  00 00 00 00  returns 0x00 (0001ms, 0914ms total)
T06A4 003:141 JLINK_ReadMem (0x4002041C, 0x000C Bytes, ...) -- CPU_ReadMem(12 bytes @ 0x4002041C) -- Data:  00 00 00 00 00 00 00 00 00 00 00 00  returns 0x00 (0001ms, 0915ms total)
T06A4 003:142 JLINK_ReadMem (0x40020428, 0x0004 Bytes, ...) -- CPU_ReadMem(4 bytes @ 0x40020428) -- Data:  00 00 00 00  returns 0x00 (0001ms, 0916ms total)
T06A4 003:143 JLINK_ReadMem (0x40020430, 0x000C Bytes, ...) -- CPU_ReadMem(12 bytes @ 0x40020430) -- Data:  00 00 00 00 00 00 00 00 00 00 00 00  returns 0x00 (0001ms, 0917ms total)
T06A4 003:144 JLINK_ReadMem (0x4002043C, 0x0004 Bytes, ...) -- CPU_ReadMem(4 bytes @ 0x4002043C) -- Data:  00 00 00 00  returns 0x00 (0001ms, 0918ms total)
T06A4 003:145 JLINK_ReadMem (0x40020444, 0x000C Bytes, ...) -- CPU_ReadMem(12 bytes @ 0x40020444) -- Data:  00 00 00 00 00 00 00 00 00 00 00 00  returns 0x00 (0001ms, 0919ms total)
T06A4 003:146 JLINK_ReadMem (0x40020450, 0x0004 Bytes, ...) -- CPU_ReadMem(4 bytes @ 0x40020450) -- Data:  00 00 00 00  returns 0x00 (0001ms, 0920ms total)
T06A4 003:147 JLINK_ReadMem (0x40020458, 0x000C Bytes, ...) -- CPU_ReadMem(12 bytes @ 0x40020458) -- Data:  90 30 00 00 00 00 00 00 04 4C 00 40  returns 0x00 (0001ms, 0921ms total)
T06A4 003:148 JLINK_ReadMem (0x40020464, 0x0004 Bytes, ...) -- CPU_ReadMem(4 bytes @ 0x40020464) -- Data:  78 4E 00 20  returns 0x00 (0000ms, 0921ms total)
T06A4 003:148 JLINK_ReadMem (0x4002046C, 0x000C Bytes, ...) -- CPU_ReadMem(12 bytes @ 0x4002046C) -- Data:  00 00 00 00 00 00 00 00 00 00 00 00  returns 0x00 (0002ms, 0923ms total)
